
T0E08 000:311 SEGGER J-Link V4.96d Log File (0001ms, 0290ms total)
T0E08 000:311 DLL Compiled: Jan 29 2015 11:45:37 (0001ms, 0290ms total)
T0E08 000:311 Logging started @ 2026-05-09 09:17 (0001ms, 0290ms total)
T0E08 000:312 JLINK_SetWarnOutHandler(...) (0000ms, 0290ms total)
T0E08 000:312 JLINK_OpenEx(...)
Firmware: J-Link ARM-OB STM32 compiled Aug 22 2012 19:52:04
Hardware: V7.00
S/N: 20090929
Feature(s): RDI,FlashDL,FlashBP,JFlash,GDBFull  returns O.K. (0275ms, 0565ms total)
T0E08 000:587 JLINK_SetErrorOutHandler(...) (0000ms, 0565ms total)
T0E08 000:587 JLINK_ExecCommand("ProjectFile = "e:\yueqian_projects\STM32-projects\interrupt\JLinkSettings.ini"", ...)  returns 0x00 (0009ms, 0574ms total)
T0E08 000:597 JLINK_ExecCommand("Device = STM32F407ZE", ...)Device "STM32F407ZE" selected.  returns 0x00 (0001ms, 0575ms total)
T0E08 000:598 JLINK_ExecCommand("DisableConnectionTimeout", ...)  returns 0x01 (0000ms, 0575ms total)
T0E08 000:598 JLINK_GetHardwareVersion()  returns 0x11170 (0000ms, 0575ms total)
T0E08 000:598 JLINK_GetDLLVersion()  returns 49604 (0000ms, 0575ms total)
T0E08 000:598 JLINK_GetFirmwareString(...) (0000ms, 0575ms total)
T0E08 000:609 JLINK_GetDLLVersion()  returns 49604 (0000ms, 0575ms total)
T0E08 000:609 JLINK_GetCompileDateTime() (0000ms, 0575ms total)
T0E08 000:609 JLINK_GetFirmwareString(...) (0000ms, 0575ms total)
T0E08 000:612 JLINK_GetHardwareVersion()  returns 0x11170 (0000ms, 0575ms total)
T0E08 000:615 JLINK_TIF_Select(JLINKARM_TIF_SWD)  returns 0x00 (0001ms, 0576ms total)
T0E08 000:616 JLINK_SetSpeed(20000) (0000ms, 0576ms total)
T0E08 000:616 JLINK_GetId() >0x108 TIF>Found SWD-DP with ID 0x2BA01477 >0x0D TIF> >0x28 TIF> >0x0D TIF> >0x28 TIF> >0x0D TIF> >0x21 TIF> >0x0D TIF> >0x28 TIF> >0x0D TIF> >0x28 TIF> >0x0D TIF> >0x28 TIF> >0x0D TIF> >0x21 TIF> >0x0D TIF> >0x21 TIF> >0x0D TIF> >0x28 TIF> >0x0D TIF> >0x21 TIF> >0x0D TIF> >0x21 TIF> >0x0D TIF> >0x28 TIF> >0x0D TIF> >0x21 TIF> >0x0D TIF> >0x21 TIF> >0x108 TIF>Found SWD-DP with ID 0x2BA01477 >0x0D TIF> >0x21 TIF> >0x0D TIF> >0x28 TIF> >0x0D TIF> >0x28 TIF> >0x0D TIF> >0x21 TIF>
 >0x0D TIF> >0x28 TIF> >0x0D TIF> >0x21 TIF> >0x0D TIF> >0x21 TIF> >0x0D TIF> >0x21 TIF> >0x0D TIF> >0x21 TIF> >0x0D TIF> >0x28 TIF> >0x0D TIF> >0x28 TIF> >0x0D TIF> >0x21 TIF> >0x0D TIF> >0x28 TIF> >0x0D TIF> >0x28 TIF> >0x0D TIF> >0x28 TIF> >0x0D TIF> >0x21 TIF> >0x0D TIF> >0x21 TIF> >0x0D TIF> >0x28 TIF> >0x0D TIF> >0x21 TIF> >0x0D TIF> >0x21 TIF>Found Cortex-M4 r0p1, Little endian. -- CPU_WriteMem(4 bytes @ 0xE0002000) -- CPU_ReadMem(4 bytes @ 0xE000EDF0) -- CPU_ReadMem(4 bytes @ 0xE0002000)
FPUnit: 6 code (BP) slots and 2 literal slots -- CPU_ReadMem(4 bytes @ 0xE000EDFC) -- CPU_ReadMem(4 bytes @ 0xE0001000) -- CPU_WriteMem(4 bytes @ 0xE0001000) -- CPU_ReadMem(4 bytes @ 0xE000ED88) -- CPU_WriteMem(4 bytes @ 0xE000ED88) -- CPU_ReadMem(4 bytes @ 0xE000ED88) -- CPU_WriteMem(4 bytes @ 0xE000ED88) -- CPU_ReadMem(4 bytes @ 0xE00FF010)TPIU fitted. -- CPU_ReadMem(4 bytes @ 0xE00FF014)ETM fitted. -- CPU_ReadMem(4 bytes @ 0xE00FF018) >0x0D TIF> >0x21 TIF>  returns 0x2BA01477 (0034ms, 0610ms total)
T0E08 000:650 JLINK_GetDLLVersion()  returns 49604 (0000ms, 0610ms total)
T0E08 000:650 JLINK_CORE_GetFound()  returns 0xE0000FF (0000ms, 0610ms total)
T0E08 000:650 JLINK_GetDebugInfo(0x100) -- Value=0xE00FF003  returns 0x00 (0000ms, 0610ms total)
T0E08 000:652 JLINK_ReadMem (0xE00FF000, 0x0020 Bytes, ...) -- CPU is running -- CPU_ReadMem(32 bytes @ 0xE00FF000) - Data: 03 F0 F0 FF 03 20 F0 FF 03 30 F0 FF 03 10 F0 FF ...  returns 0x00 (0000ms, 0610ms total)
T0E08 000:652 JLINK_ReadMem (0xE000EFF0, 0x0010 Bytes, ...) -- CPU is running -- CPU_ReadMem(16 bytes @ 0xE000EFF0) - Data: 0D 00 00 00 E0 00 00 00 05 00 00 00 B1 00 00 00  returns 0x00 (0001ms, 0611ms total)
T0E08 000:653 JLINK_ReadMem (0xE000EFD0, 0x0020 Bytes, ...) -- CPU is running -- CPU_ReadMem(32 bytes @ 0xE000EFD0) - Data: 04 00 00 00 00 00 00 00 00 00 00 00 00 00 00 00 ...  returns 0x00 (0001ms, 0612ms total)
T0E08 000:654 JLINK_ReadMem (0xE0001FF0, 0x0010 Bytes, ...) -- CPU is running -- CPU_ReadMem(16 bytes @ 0xE0001FF0) - Data: 0D 00 00 00 E0 00 00 00 05 00 00 00 B1 00 00 00  returns 0x00 (0001ms, 0613ms total)
T0E08 000:655 JLINK_ReadMem (0xE0001FD0, 0x0020 Bytes, ...) -- CPU is running -- CPU_ReadMem(32 bytes @ 0xE0001FD0) - Data: 04 00 00 00 00 00 00 00 00 00 00 00 00 00 00 00 ...  returns 0x00 (0000ms, 0613ms total)
T0E08 000:655 JLINK_ReadMem (0xE0002FF0, 0x0010 Bytes, ...) -- CPU is running -- CPU_ReadMem(16 bytes @ 0xE0002FF0) - Data: 0D 00 00 00 E0 00 00 00 05 00 00 00 B1 00 00 00  returns 0x00 (0001ms, 0614ms total)
T0E08 000:656 JLINK_ReadMem (0xE0002FD0, 0x0020 Bytes, ...) -- CPU is running -- CPU_ReadMem(32 bytes @ 0xE0002FD0) - Data: 04 00 00 00 00 00 00 00 00 00 00 00 00 00 00 00 ...  returns 0x00 (0001ms, 0615ms total)
T0E08 000:657 JLINK_ReadMem (0xE0000FF0, 0x0010 Bytes, ...) -- CPU is running -- CPU_ReadMem(16 bytes @ 0xE0000FF0) - Data: 0D 00 00 00 E0 00 00 00 05 00 00 00 B1 00 00 00  returns 0x00 (0001ms, 0616ms total)
T0E08 000:658 JLINK_ReadMem (0xE0000FD0, 0x0020 Bytes, ...) -- CPU is running -- CPU_ReadMem(32 bytes @ 0xE0000FD0) - Data: 04 00 00 00 00 00 00 00 00 00 00 00 00 00 00 00 ...  returns 0x00 (0000ms, 0616ms total)
T0E08 000:658 JLINK_ReadMem (0xE0040FF0, 0x0010 Bytes, ...) -- CPU is running -- CPU_ReadMem(16 bytes @ 0xE0040FF0) - Data: 0D 00 00 00 90 00 00 00 05 00 00 00 B1 00 00 00  returns 0x00 (0001ms, 0617ms total)
T0E08 000:659 JLINK_ReadMem (0xE0040FD0, 0x0020 Bytes, ...) -- CPU is running -- CPU_ReadMem(32 bytes @ 0xE0040FD0) - Data: 04 00 00 00 00 00 00 00 00 00 00 00 00 00 00 00 ...  returns 0x00 (0001ms, 0618ms total)
T0E08 000:660 JLINK_ReadMem (0xE0041FF0, 0x0010 Bytes, ...) -- CPU is running -- CPU_ReadMem(16 bytes @ 0xE0041FF0) - Data: 0D 00 00 00 90 00 00 00 05 00 00 00 B1 00 00 00  returns 0x00 (0001ms, 0619ms total)
T0E08 000:661 JLINK_ReadMem (0xE0041FD0, 0x0020 Bytes, ...) -- CPU is running -- CPU_ReadMem(32 bytes @ 0xE0041FD0) - Data: 04 00 00 00 00 00 00 00 00 00 00 00 00 00 00 00 ...  returns 0x00 (0001ms, 0620ms total)
T0E08 000:662 JLINK_ReadMemU32(0xE000EF40, 0x0001 Items, ...) -- CPU is running -- CPU_ReadMem(4 bytes @ 0xE000EF40) - Data: 21 00 11 10  returns 0x01 (0000ms, 0620ms total)
T0E08 000:662 JLINK_ReadMemU32(0xE000EF44, 0x0001 Items, ...) -- CPU is running -- CPU_ReadMem(4 bytes @ 0xE000EF44) - Data: 11 00 00 11  returns 0x01 (0001ms, 0621ms total)
T0E08 000:663 JLINK_ReadMemU32(0xE000ED00, 0x0001 Items, ...) -- CPU is running -- CPU_ReadMem(4 bytes @ 0xE000ED00) - Data: 41 C2 0F 41  returns 0x01 (0001ms, 0622ms total)
T0E08 000:664 JLINK_SetResetType(JLINKARM_RESET_TYPE_NORMAL)  returns JLINKARM_RESET_TYPE_NORMAL (0000ms, 0622ms total)
T0E08 000:664 JLINK_Reset() -- CPU is running -- CPU_WriteMem(4 bytes @ 0xE000EDF0) -- CPU is running -- CPU_WriteMem(4 bytes @ 0xE000EDFC) >0x35 TIF> -- CPU is running -- CPU_WriteMem(4 bytes @ 0xE000ED0C) -- CPU is running -- CPU_ReadMem(4 bytes @ 0xE000EDF0) -- CPU is running -- CPU_ReadMem(4 bytes @ 0xE000EDF0) -- CPU is running -- CPU_WriteMem(4 bytes @ 0xE000EDF0) -- CPU is running -- CPU_WriteMem(4 bytes @ 0xE000EDFC) -- CPU is running -- CPU_ReadMem(4 bytes @ 0xE000EDF0)
 -- CPU_WriteMem(4 bytes @ 0xE0002000) -- CPU_ReadMem(4 bytes @ 0xE000EDFC) -- CPU_ReadMem(4 bytes @ 0xE0001000) (0018ms, 0640ms total)
T0E08 000:682 JLINK_Halt()  returns 0x00 (0000ms, 0640ms total)
T0E08 000:682 JLINK_IsHalted()  returns TRUE (0000ms, 0640ms total)
T0E08 000:682 JLINK_ReadMemU32(0xE000EDF0, 0x0001 Items, ...) -- CPU_ReadMem(4 bytes @ 0xE000EDF0) - Data: 03 00 03 00  returns 0x01 (0001ms, 0641ms total)
T0E08 000:683 JLINK_WriteU32(0xE000EDF0, 0xA05F0003) -- CPU_WriteMem(4 bytes @ 0xE000EDF0)  returns 0x00 (0000ms, 0641ms total)
T0E08 000:683 JLINK_WriteU32(0xE000EDFC, 0x01000000) -- CPU_WriteMem(4 bytes @ 0xE000EDFC)  returns 0x00 (0001ms, 0642ms total)
T0E08 000:686 JLINK_GetHWStatus(...)  returns 0x00 (0000ms, 0642ms total)
T0E08 000:692 JLINK_GetNumBPUnits(Type = 0xFFFFFF00)  returns 0x06 (0000ms, 0642ms total)
T0E08 000:692 JLINK_GetNumBPUnits(Type = 0xF0)  returns 0x2000 (0000ms, 0642ms total)
T0E08 000:692 JLINK_GetNumWPUnits()  returns 0x04 (0000ms, 0642ms total)
T0E08 000:695 JLINK_GetSpeed()  returns 0xFA0 (0000ms, 0642ms total)
T0E08 000:695 JLINK_ReadMemU32(0xE000E004, 0x0001 Items, ...) -- CPU_ReadMem(4 bytes @ 0xE000E004) - Data: 02 00 00 00  returns 0x01 (0001ms, 0643ms total)
T0E08 000:696 JLINK_ReadMemU32(0xE000E004, 0x0001 Items, ...) -- CPU_ReadMem(4 bytes @ 0xE000E004) - Data: 02 00 00 00  returns 0x01 (0000ms, 0643ms total)
T0E08 000:696 JLINK_WriteMem(0xE0001000, 0x001C Bytes, ...) - Data: 01 00 00 00 00 00 00 00 00 00 00 00 00 00 00 00 ... -- CPU_WriteMem(28 bytes @ 0xE0001000)  returns 0x1C (0002ms, 0645ms total)
T0E08 000:698 JLINK_ReadMem (0xE0001000, 0x001C Bytes, ...) -- CPU_ReadMem(28 bytes @ 0xE0001000) - Data: 01 00 00 40 00 00 00 00 00 00 00 00 00 00 00 00 ...  returns 0x00 (0001ms, 0646ms total)
T0E08 000:699 JLINK_Halt()  returns 0x00 (0000ms, 0646ms total)
T0E08 000:699 JLINK_IsHalted()  returns TRUE (0000ms, 0646ms total)
T0E08 000:710 JLINK_WriteMem(0x20000000, 0x0180 Bytes, ...) - Data: 00 BE 0A E0 0D 78 2D 06 68 40 08 24 40 00 00 D3 ... -- CPU_WriteMem(384 bytes @ 0x20000000)  returns 0x180 (0005ms, 0651ms total)
T0E08 000:715 JLINK_WriteReg(R0, 0x08000000)  returns 0x00 (0000ms, 0651ms total)
T0E08 000:715 JLINK_WriteReg(R1, 0x00B71B00)  returns 0x00 (0000ms, 0651ms total)
T0E08 000:715 JLINK_WriteReg(R2, 0x00000001)  returns 0x00 (0000ms, 0651ms total)
T0E08 000:715 JLINK_WriteReg(R3, 0x00000000)  returns 0x00 (0000ms, 0651ms total)
T0E08 000:715 JLINK_WriteReg(R4, 0x00000000)  returns 0x00 (0000ms, 0651ms total)
T0E08 000:715 JLINK_WriteReg(R5, 0x00000000)  returns 0x00 (0000ms, 0651ms total)
T0E08 000:715 JLINK_WriteReg(R6, 0x00000000)  returns 0x00 (0000ms, 0651ms total)
T0E08 000:715 JLINK_WriteReg(R7, 0x00000000)  returns 0x00 (0000ms, 0651ms total)
T0E08 000:715 JLINK_WriteReg(R8, 0x00000000)  returns 0x00 (0000ms, 0651ms total)
T0E08 000:715 JLINK_WriteReg(R9, 0x2000017C)  returns 0x00 (0000ms, 0651ms total)
T0E08 000:715 JLINK_WriteReg(R10, 0x00000000)  returns 0x00 (0000ms, 0651ms total)
T0E08 000:715 JLINK_WriteReg(R11, 0x00000000)  returns 0x00 (0000ms, 0651ms total)
T0E08 000:715 JLINK_WriteReg(R12, 0x00000000)  returns 0x00 (0000ms, 0651ms total)
T0E08 000:715 JLINK_WriteReg(R13 (SP), 0x20001000)  returns 0x00 (0000ms, 0651ms total)
T0E08 000:715 JLINK_WriteReg(R14, 0x20000001)  returns 0x00 (0001ms, 0652ms total)
T0E08 000:716 JLINK_WriteReg(R15 (PC), 0x20000054)  returns 0x00 (0000ms, 0652ms total)
T0E08 000:716 JLINK_WriteReg(XPSR, 0x01000000)  returns 0x00 (0000ms, 0652ms total)
T0E08 000:716 JLINK_WriteReg(MSP, 0x20001000)  returns 0x00 (0000ms, 0652ms total)
T0E08 000:716 JLINK_WriteReg(PSP, 0x20001000)  returns 0x00 (0000ms, 0652ms total)
T0E08 000:716 JLINK_WriteReg(CFBP, 0x00000000)  returns 0x00 (0000ms, 0652ms total)
T0E08 000:716 JLINK_SetBPEx(Addr = 0x20000000, Type = 0xFFFFFFF2) -- CPU_ReadMem(2 bytes @ 0x20000000)  returns 0x00000001 (0000ms, 0652ms total)
T0E08 000:716 JLINK_Go() -- CPU_WriteMem(2 bytes @ 0x20000000) -- CPU_WriteMem(4 bytes @ 0xE0002008) -- CPU_WriteMem(4 bytes @ 0xE000200C) -- CPU_WriteMem(4 bytes @ 0xE0002010) -- CPU_WriteMem(4 bytes @ 0xE0002014) -- CPU_WriteMem(4 bytes @ 0xE0002018) -- CPU_WriteMem(4 bytes @ 0xE000201C) -- CPU_WriteMem(4 bytes @ 0xE0001004) (0006ms, 0658ms total)
T0E08 000:722 JLINK_IsHalted() -- CPU_ReadMem(2 bytes @ 0x20000000)  returns TRUE (0004ms, 0662ms total)
T0E08 000:726 JLINK_ReadReg(R15 (PC))  returns 0x20000000 (0000ms, 0658ms total)
T0E08 000:726 JLINK_ClrBPEx(BPHandle = 0x00000001)  returns 0x00 (0000ms, 0658ms total)
T0E08 000:726 JLINK_ReadReg(R0)  returns 0x00000000 (0000ms, 0658ms total)
T0E08 000:726 JLINK_WriteReg(R0, 0x08000000)  returns 0x00 (0000ms, 0658ms total)
T0E08 000:726 JLINK_WriteReg(R1, 0x00004000)  returns 0x00 (0000ms, 0658ms total)
T0E08 000:726 JLINK_WriteReg(R2, 0x000000FF)  returns 0x00 (0000ms, 0658ms total)
T0E08 000:726 JLINK_WriteReg(R3, 0x00000000)  returns 0x00 (0000ms, 0658ms total)
T0E08 000:726 JLINK_WriteReg(R4, 0x00000000)  returns 0x00 (0000ms, 0658ms total)
T0E08 000:726 JLINK_WriteReg(R5, 0x00000000)  returns 0x00 (0000ms, 0658ms total)
T0E08 000:726 JLINK_WriteReg(R6, 0x00000000)  returns 0x00 (0000ms, 0658ms total)
T0E08 000:726 JLINK_WriteReg(R7, 0x00000000)  returns 0x00 (0000ms, 0658ms total)
T0E08 000:726 JLINK_WriteReg(R8, 0x00000000)  returns 0x00 (0000ms, 0658ms total)
T0E08 000:727 JLINK_WriteReg(R9, 0x2000017C)  returns 0x00 (0000ms, 0658ms total)
T0E08 000:727 JLINK_WriteReg(R10, 0x00000000)  returns 0x00 (0000ms, 0658ms total)
T0E08 000:727 JLINK_WriteReg(R11, 0x00000000)  returns 0x00 (0000ms, 0658ms total)
T0E08 000:727 JLINK_WriteReg(R12, 0x00000000)  returns 0x00 (0000ms, 0658ms total)
T0E08 000:727 JLINK_WriteReg(R13 (SP), 0x20001000)  returns 0x00 (0000ms, 0658ms total)
T0E08 000:727 JLINK_WriteReg(R14, 0x20000001)  returns 0x00 (0000ms, 0658ms total)
T0E08 000:727 JLINK_WriteReg(R15 (PC), 0x20000020)  returns 0x00 (0000ms, 0658ms total)
T0E08 000:727 JLINK_WriteReg(XPSR, 0x01000000)  returns 0x00 (0000ms, 0658ms total)
T0E08 000:727 JLINK_WriteReg(MSP, 0x20001000)  returns 0x00 (0000ms, 0658ms total)
T0E08 000:727 JLINK_WriteReg(PSP, 0x20001000)  returns 0x00 (0000ms, 0658ms total)
T0E08 000:727 JLINK_WriteReg(CFBP, 0x00000000)  returns 0x00 (0000ms, 0658ms total)
T0E08 000:727 JLINK_SetBPEx(Addr = 0x20000000, Type = 0xFFFFFFF2)  returns 0x00000002 (0000ms, 0658ms total)
T0E08 000:727 JLINK_Go() (0001ms, 0659ms total)
T0E08 000:728 JLINK_IsHalted() -- CPU_ReadMem(2 bytes @ 0x20000000)  returns TRUE (0005ms, 0664ms total)
T0E08 000:733 JLINK_ReadReg(R15 (PC))  returns 0x20000000 (0000ms, 0659ms total)
T0E08 000:733 JLINK_ClrBPEx(BPHandle = 0x00000002)  returns 0x00 (0000ms, 0659ms total)
T0E08 000:733 JLINK_ReadReg(R0)  returns 0x00000001 (0000ms, 0659ms total)
T0E08 000:733 JLINK_WriteReg(R0, 0x08000000)  returns 0x00 (0000ms, 0659ms total)
T0E08 000:733 JLINK_WriteReg(R1, 0x00004000)  returns 0x00 (0000ms, 0659ms total)
T0E08 000:733 JLINK_WriteReg(R2, 0x000000FF)  returns 0x00 (0000ms, 0659ms total)
T0E08 000:733 JLINK_WriteReg(R3, 0x00000000)  returns 0x00 (0000ms, 0659ms total)
T0E08 000:733 JLINK_WriteReg(R4, 0x00000000)  returns 0x00 (0000ms, 0659ms total)
T0E08 000:733 JLINK_WriteReg(R5, 0x00000000)  returns 0x00 (0000ms, 0659ms total)
T0E08 000:733 JLINK_WriteReg(R6, 0x00000000)  returns 0x00 (0000ms, 0659ms total)
T0E08 000:733 JLINK_WriteReg(R7, 0x00000000)  returns 0x00 (0000ms, 0659ms total)
T0E08 000:733 JLINK_WriteReg(R8, 0x00000000)  returns 0x00 (0000ms, 0659ms total)
T0E08 000:733 JLINK_WriteReg(R9, 0x2000017C)  returns 0x00 (0000ms, 0659ms total)
T0E08 000:733 JLINK_WriteReg(R10, 0x00000000)  returns 0x00 (0000ms, 0659ms total)
T0E08 000:733 JLINK_WriteReg(R11, 0x00000000)  returns 0x00 (0000ms, 0659ms total)
T0E08 000:733 JLINK_WriteReg(R12, 0x00000000)  returns 0x00 (0000ms, 0659ms total)
T0E08 000:733 JLINK_WriteReg(R13 (SP), 0x20001000)  returns 0x00 (0000ms, 0659ms total)
T0E08 000:733 JLINK_WriteReg(R14, 0x20000001)  returns 0x00 (0000ms, 0659ms total)
T0E08 000:733 JLINK_WriteReg(R15 (PC), 0x200000BC)  returns 0x00 (0000ms, 0659ms total)
T0E08 000:734 JLINK_WriteReg(XPSR, 0x01000000)  returns 0x00 (0000ms, 0660ms total)
T0E08 000:734 JLINK_WriteReg(MSP, 0x20001000)  returns 0x00 (0000ms, 0660ms total)
T0E08 000:734 JLINK_WriteReg(PSP, 0x20001000)  returns 0x00 (0000ms, 0660ms total)
T0E08 000:734 JLINK_WriteReg(CFBP, 0x00000000)  returns 0x00 (0000ms, 0660ms total)
T0E08 000:734 JLINK_SetBPEx(Addr = 0x20000000, Type = 0xFFFFFFF2)  returns 0x00000003 (0000ms, 0660ms total)
T0E08 000:734 JLINK_Go() (0001ms, 0661ms total)
T0E08 000:735 JLINK_IsHalted()  returns FALSE (0001ms, 0662ms total)
T0E08 000:805 JLINK_IsHalted()  returns FALSE (0000ms, 0661ms total)
T0E08 000:807 JLINK_IsHalted()  returns FALSE (0001ms, 0662ms total)
T0E08 000:809 JLINK_IsHalted()  returns FALSE (0000ms, 0661ms total)
T0E08 000:832 JLINK_IsHalted()  returns FALSE (0011ms, 0672ms total)
T0E08 000:846 JLINK_IsHalted()  returns FALSE (0004ms, 0665ms total)
T0E08 000:854 JLINK_IsHalted()  returns FALSE (0001ms, 0662ms total)
T0E08 000:857 JLINK_IsHalted()  returns FALSE (0000ms, 0661ms total)
T0E08 000:870 JLINK_IsHalted()  returns FALSE (0020ms, 0681ms total)
T0E08 000:896 JLINK_IsHalted()  returns FALSE (0002ms, 0663ms total)
T0E08 000:900 JLINK_IsHalted()  returns FALSE (0000ms, 0661ms total)
T0E08 000:903 JLINK_IsHalted()  returns FALSE (0007ms, 0668ms total)
T0E08 000:913 JLINK_IsHalted()  returns FALSE (0001ms, 0662ms total)
T0E08 000:916 JLINK_IsHalted()  returns FALSE (0000ms, 0661ms total)
T0E08 000:918 JLINK_IsHalted()  returns FALSE (0006ms, 0667ms total)
T0E08 000:928 JLINK_IsHalted()  returns FALSE (0011ms, 0672ms total)
T0E08 000:941 JLINK_IsHalted()  returns FALSE (0004ms, 0665ms total)
T0E08 000:949 JLINK_IsHalted()  returns FALSE (0006ms, 0667ms total)
T0E08 000:960 JLINK_IsHalted()  returns FALSE (0001ms, 0662ms total)
T0E08 000:963 JLINK_IsHalted()  returns FALSE (0000ms, 0661ms total)
T0E08 000:965 JLINK_IsHalted()  returns FALSE (0001ms, 0662ms total)
T0E08 000:969 JLINK_IsHalted()  returns FALSE (0000ms, 0661ms total)
T0E08 000:971 JLINK_IsHalted()  returns FALSE (0001ms, 0662ms total)
T0E08 000:973 JLINK_IsHalted()  returns FALSE (0001ms, 0662ms total)
T0E08 000:975 JLINK_IsHalted()  returns FALSE (0000ms, 0661ms total)
T0E08 000:977 JLINK_IsHalted()  returns FALSE (0000ms, 0661ms total)
T0E08 000:979 JLINK_IsHalted()  returns FALSE (0000ms, 0661ms total)
T0E08 000:982 JLINK_IsHalted()  returns FALSE (0001ms, 0662ms total)
T0E08 000:984 JLINK_IsHalted()  returns FALSE (0001ms, 0662ms total)
T0E08 000:987 JLINK_IsHalted()  returns FALSE (0001ms, 0662ms total)
T0E08 000:990 JLINK_IsHalted()  returns FALSE (0000ms, 0661ms total)
T0E08 000:992 JLINK_IsHalted()  returns FALSE (0000ms, 0661ms total)
T0E08 000:994 JLINK_IsHalted()  returns FALSE (0000ms, 0661ms total)
T0E08 000:997 JLINK_IsHalted()  returns FALSE (0000ms, 0661ms total)
T0E08 000:999 JLINK_IsHalted()  returns FALSE (0000ms, 0661ms total)
T0E08 001:001 JLINK_IsHalted()  returns FALSE (0000ms, 0661ms total)
T0E08 001:004 JLINK_IsHalted()  returns FALSE (0000ms, 0661ms total)
T0E08 001:006 JLINK_IsHalted()  returns FALSE (0000ms, 0661ms total)
T0E08 001:008 JLINK_IsHalted()  returns FALSE (0001ms, 0662ms total)
T0E08 001:010 JLINK_IsHalted()  returns FALSE (0003ms, 0664ms total)
T0E08 001:015 JLINK_IsHalted()  returns FALSE (0000ms, 0661ms total)
T0E08 001:017 JLINK_IsHalted()  returns FALSE (0001ms, 0662ms total)
T0E08 001:019 JLINK_IsHalted()  returns FALSE (0001ms, 0662ms total)
T0E08 001:022 JLINK_IsHalted()  returns FALSE (0000ms, 0661ms total)
T0E08 001:024 JLINK_IsHalted()  returns FALSE (0000ms, 0661ms total)
T0E08 001:026 JLINK_IsHalted()  returns FALSE (0000ms, 0661ms total)
T0E08 001:028 JLINK_IsHalted()  returns FALSE (0000ms, 0661ms total)
T0E08 001:030 JLINK_IsHalted()  returns FALSE (0002ms, 0663ms total)
T0E08 001:034 JLINK_IsHalted()  returns FALSE (0000ms, 0661ms total)
T0E08 001:036 JLINK_IsHalted()  returns FALSE (0000ms, 0661ms total)
T0E08 001:039 JLINK_IsHalted()  returns FALSE (0000ms, 0661ms total)
T0E08 001:045 JLINK_IsHalted()  returns FALSE (0001ms, 0662ms total)
T0E08 001:049 JLINK_IsHalted()  returns FALSE (0001ms, 0662ms total)
T0E08 001:051 JLINK_IsHalted()  returns FALSE (0001ms, 0662ms total)
T0E08 001:053 JLINK_IsHalted()  returns FALSE (0000ms, 0661ms total)
T0E08 001:056 JLINK_IsHalted()  returns FALSE (0000ms, 0661ms total)
T0E08 001:058 JLINK_IsHalted()  returns FALSE (0001ms, 0662ms total)
T0E08 001:061 JLINK_IsHalted()  returns FALSE (0000ms, 0661ms total)
T0E08 001:064 JLINK_IsHalted()  returns FALSE (0000ms, 0661ms total)
T0E08 001:066 JLINK_IsHalted()  returns FALSE (0000ms, 0661ms total)
T0E08 001:069 JLINK_IsHalted()  returns FALSE (0000ms, 0661ms total)
T0E08 001:072 JLINK_IsHalted()  returns FALSE (0005ms, 0666ms total)
T0E08 001:078 JLINK_IsHalted()  returns FALSE (0002ms, 0663ms total)
T0E08 001:082 JLINK_IsHalted()  returns FALSE (0005ms, 0666ms total)
T0E08 001:097 JLINK_IsHalted()  returns FALSE (0005ms, 0666ms total)
T0E08 001:103 JLINK_IsHalted()  returns FALSE (0003ms, 0664ms total)
T0E08 001:114 JLINK_IsHalted()  returns FALSE (0001ms, 0662ms total)
T0E08 001:117 JLINK_IsHalted()  returns FALSE (0000ms, 0661ms total)
T0E08 001:120 JLINK_IsHalted()  returns FALSE (0000ms, 0661ms total)
T0E08 001:122 JLINK_IsHalted() -- CPU_ReadMem(2 bytes @ 0x20000000)  returns TRUE (0004ms, 0665ms total)
T0E08 001:126 JLINK_ReadReg(R15 (PC))  returns 0x20000000 (0000ms, 0661ms total)
T0E08 001:126 JLINK_ClrBPEx(BPHandle = 0x00000003)  returns 0x00 (0000ms, 0661ms total)
T0E08 001:126 JLINK_ReadReg(R0)  returns 0x00000000 (0000ms, 0661ms total)
T0E08 001:126 JLINK_WriteReg(R0, 0x00000001)  returns 0x00 (0000ms, 0661ms total)
T0E08 001:126 JLINK_WriteReg(R1, 0x00004000)  returns 0x00 (0000ms, 0661ms total)
T0E08 001:126 JLINK_WriteReg(R2, 0x000000FF)  returns 0x00 (0000ms, 0661ms total)
T0E08 001:126 JLINK_WriteReg(R3, 0x00000000)  returns 0x00 (0000ms, 0661ms total)
T0E08 001:126 JLINK_WriteReg(R4, 0x00000000)  returns 0x00 (0000ms, 0661ms total)
T0E08 001:126 JLINK_WriteReg(R5, 0x00000000)  returns 0x00 (0000ms, 0661ms total)
T0E08 001:126 JLINK_WriteReg(R6, 0x00000000)  returns 0x00 (0000ms, 0661ms total)
T0E08 001:127 JLINK_WriteReg(R7, 0x00000000)  returns 0x00 (0000ms, 0662ms total)
T0E08 001:127 JLINK_WriteReg(R8, 0x00000000)  returns 0x00 (0000ms, 0662ms total)
T0E08 001:127 JLINK_WriteReg(R9, 0x2000017C)  returns 0x00 (0000ms, 0662ms total)
T0E08 001:127 JLINK_WriteReg(R10, 0x00000000)  returns 0x00 (0000ms, 0662ms total)
T0E08 001:127 JLINK_WriteReg(R11, 0x00000000)  returns 0x00 (0000ms, 0662ms total)
T0E08 001:127 JLINK_WriteReg(R12, 0x00000000)  returns 0x00 (0000ms, 0662ms total)
T0E08 001:127 JLINK_WriteReg(R13 (SP), 0x20001000)  returns 0x00 (0000ms, 0662ms total)
T0E08 001:127 JLINK_WriteReg(R14, 0x20000001)  returns 0x00 (0000ms, 0662ms total)
T0E08 001:127 JLINK_WriteReg(R15 (PC), 0x20000082)  returns 0x00 (0000ms, 0662ms total)
T0E08 001:127 JLINK_WriteReg(XPSR, 0x01000000)  returns 0x00 (0000ms, 0662ms total)
T0E08 001:127 JLINK_WriteReg(MSP, 0x20001000)  returns 0x00 (0000ms, 0662ms total)
T0E08 001:127 JLINK_WriteReg(PSP, 0x20001000)  returns 0x00 (0000ms, 0662ms total)
T0E08 001:127 JLINK_WriteReg(CFBP, 0x00000000)  returns 0x00 (0000ms, 0662ms total)
T0E08 001:127 JLINK_SetBPEx(Addr = 0x20000000, Type = 0xFFFFFFF2)  returns 0x00000004 (0000ms, 0662ms total)
T0E08 001:127 JLINK_Go() (0002ms, 0664ms total)
T0E08 001:129 JLINK_IsHalted() -- CPU_ReadMem(2 bytes @ 0x20000000)  returns TRUE (0005ms, 0669ms total)
T0E08 001:134 JLINK_ReadReg(R15 (PC))  returns 0x20000000 (0000ms, 0664ms total)
T0E08 001:134 JLINK_ClrBPEx(BPHandle = 0x00000004)  returns 0x00 (0000ms, 0664ms total)
T0E08 001:134 JLINK_ReadReg(R0)  returns 0x00000000 (0000ms, 0664ms total)
T0E08 001:190 JLINK_WriteMem(0x20000000, 0x0180 Bytes, ...) - Data: 00 BE 0A E0 0D 78 2D 06 68 40 08 24 40 00 00 D3 ... -- CPU_WriteMem(384 bytes @ 0x20000000)  returns 0x180 (0005ms, 0669ms total)
T0E08 001:195 JLINK_WriteReg(R0, 0x08000000)  returns 0x00 (0000ms, 0669ms total)
T0E08 001:195 JLINK_WriteReg(R1, 0x00B71B00)  returns 0x00 (0000ms, 0669ms total)
T0E08 001:195 JLINK_WriteReg(R2, 0x00000002)  returns 0x00 (0000ms, 0669ms total)
T0E08 001:195 JLINK_WriteReg(R3, 0x00000000)  returns 0x00 (0000ms, 0669ms total)
T0E08 001:195 JLINK_WriteReg(R4, 0x00000000)  returns 0x00 (0000ms, 0669ms total)
T0E08 001:195 JLINK_WriteReg(R5, 0x00000000)  returns 0x00 (0000ms, 0669ms total)
T0E08 001:195 JLINK_WriteReg(R6, 0x00000000)  returns 0x00 (0000ms, 0669ms total)
T0E08 001:195 JLINK_WriteReg(R7, 0x00000000)  returns 0x00 (0000ms, 0669ms total)
T0E08 001:195 JLINK_WriteReg(R8, 0x00000000)  returns 0x00 (0000ms, 0669ms total)
T0E08 001:195 JLINK_WriteReg(R9, 0x2000017C)  returns 0x00 (0000ms, 0669ms total)
T0E08 001:195 JLINK_WriteReg(R10, 0x00000000)  returns 0x00 (0000ms, 0669ms total)
T0E08 001:195 JLINK_WriteReg(R11, 0x00000000)  returns 0x00 (0000ms, 0669ms total)
T0E08 001:195 JLINK_WriteReg(R12, 0x00000000)  returns 0x00 (0000ms, 0669ms total)
T0E08 001:195 JLINK_WriteReg(R13 (SP), 0x20001000)  returns 0x00 (0000ms, 0669ms total)
T0E08 001:195 JLINK_WriteReg(R14, 0x20000001)  returns 0x00 (0000ms, 0669ms total)
T0E08 001:195 JLINK_WriteReg(R15 (PC), 0x20000054)  returns 0x00 (0000ms, 0669ms total)
T0E08 001:196 JLINK_WriteReg(XPSR, 0x01000000)  returns 0x00 (0000ms, 0670ms total)
T0E08 001:196 JLINK_WriteReg(MSP, 0x20001000)  returns 0x00 (0000ms, 0670ms total)
T0E08 001:196 JLINK_WriteReg(PSP, 0x20001000)  returns 0x00 (0000ms, 0670ms total)
T0E08 001:196 JLINK_WriteReg(CFBP, 0x00000000)  returns 0x00 (0000ms, 0670ms total)
T0E08 001:196 JLINK_SetBPEx(Addr = 0x20000000, Type = 0xFFFFFFF2) -- CPU_ReadMem(2 bytes @ 0x20000000)  returns 0x00000005 (0001ms, 0671ms total)
T0E08 001:197 JLINK_Go() -- CPU_WriteMem(2 bytes @ 0x20000000) (0002ms, 0673ms total)
T0E08 001:199 JLINK_IsHalted() -- CPU_ReadMem(2 bytes @ 0x20000000)  returns TRUE (0003ms, 0676ms total)
T0E08 001:202 JLINK_ReadReg(R15 (PC))  returns 0x20000000 (0000ms, 0673ms total)
T0E08 001:202 JLINK_ClrBPEx(BPHandle = 0x00000005)  returns 0x00 (0000ms, 0673ms total)
T0E08 001:202 JLINK_ReadReg(R0)  returns 0x00000000 (0000ms, 0673ms total)
T0E08 001:202 JLINK_WriteMem(0x20000180, 0x0400 Bytes, ...) - Data: 98 09 01 20 41 02 00 08 49 02 00 08 4B 02 00 08 ... -- CPU_WriteMem(1024 bytes @ 0x20000180)  returns 0x400 (0013ms, 0686ms total)
T0E08 001:215 JLINK_WriteReg(R0, 0x08000000)  returns 0x00 (0000ms, 0686ms total)
T0E08 001:215 JLINK_WriteReg(R1, 0x00000400)  returns 0x00 (0000ms, 0686ms total)
T0E08 001:215 JLINK_WriteReg(R2, 0x20000180)  returns 0x00 (0000ms, 0686ms total)
T0E08 001:215 JLINK_WriteReg(R3, 0x00000000)  returns 0x00 (0000ms, 0686ms total)
T0E08 001:215 JLINK_WriteReg(R4, 0x00000000)  returns 0x00 (0000ms, 0686ms total)
T0E08 001:215 JLINK_WriteReg(R5, 0x00000000)  returns 0x00 (0000ms, 0686ms total)
T0E08 001:215 JLINK_WriteReg(R6, 0x00000000)  returns 0x00 (0000ms, 0686ms total)
T0E08 001:215 JLINK_WriteReg(R7, 0x00000000)  returns 0x00 (0000ms, 0686ms total)
T0E08 001:215 JLINK_WriteReg(R8, 0x00000000)  returns 0x00 (0000ms, 0686ms total)
T0E08 001:215 JLINK_WriteReg(R9, 0x2000017C)  returns 0x00 (0000ms, 0686ms total)
T0E08 001:215 JLINK_WriteReg(R10, 0x00000000)  returns 0x00 (0000ms, 0686ms total)
T0E08 001:215 JLINK_WriteReg(R11, 0x00000000)  returns 0x00 (0000ms, 0686ms total)
T0E08 001:215 JLINK_WriteReg(R12, 0x00000000)  returns 0x00 (0000ms, 0686ms total)
T0E08 001:215 JLINK_WriteReg(R13 (SP), 0x20001000)  returns 0x00 (0000ms, 0686ms total)
T0E08 001:215 JLINK_WriteReg(R14, 0x20000001)  returns 0x00 (0000ms, 0686ms total)
T0E08 001:215 JLINK_WriteReg(R15 (PC), 0x20000108)  returns 0x00 (0000ms, 0686ms total)
T0E08 001:215 JLINK_WriteReg(XPSR, 0x01000000)  returns 0x00 (0000ms, 0686ms total)
T0E08 001:215 JLINK_WriteReg(MSP, 0x20001000)  returns 0x00 (0000ms, 0686ms total)
T0E08 001:215 JLINK_WriteReg(PSP, 0x20001000)  returns 0x00 (0000ms, 0686ms total)
T0E08 001:215 JLINK_WriteReg(CFBP, 0x00000000)  returns 0x00 (0000ms, 0686ms total)
T0E08 001:215 JLINK_SetBPEx(Addr = 0x20000000, Type = 0xFFFFFFF2)  returns 0x00000006 (0000ms, 0686ms total)
T0E08 001:215 JLINK_Go() (0003ms, 0689ms total)
T0E08 001:218 JLINK_IsHalted()  returns FALSE (0000ms, 0689ms total)
T0E08 001:220 JLINK_IsHalted()  returns FALSE (0000ms, 0689ms total)
T0E08 001:222 JLINK_IsHalted()  returns FALSE (0000ms, 0689ms total)
T0E08 001:224 JLINK_IsHalted() -- CPU_ReadMem(2 bytes @ 0x20000000)  returns TRUE (0003ms, 0692ms total)
T0E08 001:227 JLINK_ReadReg(R15 (PC))  returns 0x20000000 (0000ms, 0689ms total)
T0E08 001:227 JLINK_ClrBPEx(BPHandle = 0x00000006)  returns 0x00 (0000ms, 0689ms total)
T0E08 001:227 JLINK_ReadReg(R0)  returns 0x00000000 (0000ms, 0689ms total)
T0E08 001:228 JLINK_WriteMem(0x20000180, 0x0400 Bytes, ...) - Data: 7A 44 0E 32 00 21 04 F1 24 03 05 E0 00 F0 0F 06 ... -- CPU_WriteMem(1024 bytes @ 0x20000180)  returns 0x400 (0012ms, 0701ms total)
T0E08 001:240 JLINK_WriteReg(R0, 0x08000400)  returns 0x00 (0000ms, 0701ms total)
T0E08 001:240 JLINK_WriteReg(R1, 0x00000400)  returns 0x00 (0000ms, 0701ms total)
T0E08 001:240 JLINK_WriteReg(R2, 0x20000180)  returns 0x00 (0000ms, 0701ms total)
T0E08 001:240 JLINK_WriteReg(R3, 0x00000000)  returns 0x00 (0000ms, 0701ms total)
T0E08 001:240 JLINK_WriteReg(R4, 0x00000000)  returns 0x00 (0000ms, 0701ms total)
T0E08 001:240 JLINK_WriteReg(R5, 0x00000000)  returns 0x00 (0000ms, 0701ms total)
T0E08 001:240 JLINK_WriteReg(R6, 0x00000000)  returns 0x00 (0000ms, 0701ms total)
T0E08 001:240 JLINK_WriteReg(R7, 0x00000000)  returns 0x00 (0000ms, 0701ms total)
T0E08 001:240 JLINK_WriteReg(R8, 0x00000000)  returns 0x00 (0001ms, 0702ms total)
T0E08 001:241 JLINK_WriteReg(R9, 0x2000017C)  returns 0x00 (0000ms, 0702ms total)
T0E08 001:241 JLINK_WriteReg(R10, 0x00000000)  returns 0x00 (0000ms, 0702ms total)
T0E08 001:241 JLINK_WriteReg(R11, 0x00000000)  returns 0x00 (0000ms, 0702ms total)
T0E08 001:241 JLINK_WriteReg(R12, 0x00000000)  returns 0x00 (0000ms, 0702ms total)
T0E08 001:241 JLINK_WriteReg(R13 (SP), 0x20001000)  returns 0x00 (0000ms, 0702ms total)
T0E08 001:241 JLINK_WriteReg(R14, 0x20000001)  returns 0x00 (0000ms, 0702ms total)
T0E08 001:241 JLINK_WriteReg(R15 (PC), 0x20000108)  returns 0x00 (0000ms, 0702ms total)
T0E08 001:241 JLINK_WriteReg(XPSR, 0x01000000)  returns 0x00 (0000ms, 0702ms total)
T0E08 001:241 JLINK_WriteReg(MSP, 0x20001000)  returns 0x00 (0000ms, 0702ms total)
T0E08 001:241 JLINK_WriteReg(PSP, 0x20001000)  returns 0x00 (0000ms, 0702ms total)
T0E08 001:241 JLINK_WriteReg(CFBP, 0x00000000)  returns 0x00 (0000ms, 0702ms total)
T0E08 001:241 JLINK_SetBPEx(Addr = 0x20000000, Type = 0xFFFFFFF2)  returns 0x00000007 (0000ms, 0702ms total)
T0E08 001:241 JLINK_Go() (0002ms, 0704ms total)
T0E08 001:243 JLINK_IsHalted()  returns FALSE (0001ms, 0705ms total)
T0E08 001:246 JLINK_IsHalted()  returns FALSE (0000ms, 0704ms total)
T0E08 001:248 JLINK_IsHalted() -- CPU_ReadMem(2 bytes @ 0x20000000)  returns TRUE (0003ms, 0707ms total)
T0E08 001:251 JLINK_ReadReg(R15 (PC))  returns 0x20000000 (0000ms, 0704ms total)
T0E08 001:251 JLINK_ClrBPEx(BPHandle = 0x00000007)  returns 0x00 (0000ms, 0704ms total)
T0E08 001:251 JLINK_ReadReg(R0)  returns 0x00000000 (0000ms, 0704ms total)
T0E08 001:251 JLINK_WriteMem(0x20000180, 0x0400 Bytes, ...) - Data: 85 46 18 B0 20 B5 FF F7 29 FD BD E8 20 40 4F F0 ... -- CPU_WriteMem(1024 bytes @ 0x20000180)  returns 0x400 (0012ms, 0716ms total)
T0E08 001:263 JLINK_WriteReg(R0, 0x08000800)  returns 0x00 (0000ms, 0716ms total)
T0E08 001:263 JLINK_WriteReg(R1, 0x00000400)  returns 0x00 (0000ms, 0716ms total)
T0E08 001:263 JLINK_WriteReg(R2, 0x20000180)  returns 0x00 (0000ms, 0716ms total)
T0E08 001:263 JLINK_WriteReg(R3, 0x00000000)  returns 0x00 (0000ms, 0716ms total)
T0E08 001:263 JLINK_WriteReg(R4, 0x00000000)  returns 0x00 (0000ms, 0716ms total)
T0E08 001:263 JLINK_WriteReg(R5, 0x00000000)  returns 0x00 (0000ms, 0716ms total)
T0E08 001:263 JLINK_WriteReg(R6, 0x00000000)  returns 0x00 (0000ms, 0716ms total)
T0E08 001:263 JLINK_WriteReg(R7, 0x00000000)  returns 0x00 (0000ms, 0716ms total)
T0E08 001:263 JLINK_WriteReg(R8, 0x00000000)  returns 0x00 (0000ms, 0716ms total)
T0E08 001:263 JLINK_WriteReg(R9, 0x2000017C)  returns 0x00 (0000ms, 0716ms total)
T0E08 001:263 JLINK_WriteReg(R10, 0x00000000)  returns 0x00 (0000ms, 0716ms total)
T0E08 001:263 JLINK_WriteReg(R11, 0x00000000)  returns 0x00 (0001ms, 0717ms total)
T0E08 001:264 JLINK_WriteReg(R12, 0x00000000)  returns 0x00 (0000ms, 0717ms total)
T0E08 001:264 JLINK_WriteReg(R13 (SP), 0x20001000)  returns 0x00 (0000ms, 0717ms total)
T0E08 001:264 JLINK_WriteReg(R14, 0x20000001)  returns 0x00 (0000ms, 0717ms total)
T0E08 001:264 JLINK_WriteReg(R15 (PC), 0x20000108)  returns 0x00 (0000ms, 0717ms total)
T0E08 001:264 JLINK_WriteReg(XPSR, 0x01000000)  returns 0x00 (0000ms, 0717ms total)
T0E08 001:264 JLINK_WriteReg(MSP, 0x20001000)  returns 0x00 (0000ms, 0717ms total)
T0E08 001:264 JLINK_WriteReg(PSP, 0x20001000)  returns 0x00 (0000ms, 0717ms total)
T0E08 001:264 JLINK_WriteReg(CFBP, 0x00000000)  returns 0x00 (0000ms, 0717ms total)
T0E08 001:264 JLINK_SetBPEx(Addr = 0x20000000, Type = 0xFFFFFFF2)  returns 0x00000008 (0000ms, 0717ms total)
T0E08 001:264 JLINK_Go() (0002ms, 0719ms total)
T0E08 001:266 JLINK_IsHalted()  returns FALSE (0001ms, 0720ms total)
T0E08 001:269 JLINK_IsHalted()  returns FALSE (0000ms, 0719ms total)
T0E08 001:271 JLINK_IsHalted() -- CPU_ReadMem(2 bytes @ 0x20000000)  returns TRUE (0006ms, 0725ms total)
T0E08 001:277 JLINK_ReadReg(R15 (PC))  returns 0x20000000 (0000ms, 0719ms total)
T0E08 001:277 JLINK_ClrBPEx(BPHandle = 0x00000008)  returns 0x00 (0000ms, 0719ms total)
T0E08 001:277 JLINK_ReadReg(R0)  returns 0x00000000 (0000ms, 0719ms total)
T0E08 001:277 JLINK_WriteMem(0x20000180, 0x0400 Bytes, ...) - Data: B5 43 CF 10 00 F1 20 06 46 F8 27 50 CE 10 00 F1 ... -- CPU_WriteMem(1024 bytes @ 0x20000180)  returns 0x400 (0015ms, 0734ms total)
T0E08 001:292 JLINK_WriteReg(R0, 0x08000C00)  returns 0x00 (0000ms, 0734ms total)
T0E08 001:292 JLINK_WriteReg(R1, 0x00000400)  returns 0x00 (0000ms, 0734ms total)
T0E08 001:292 JLINK_WriteReg(R2, 0x20000180)  returns 0x00 (0000ms, 0734ms total)
T0E08 001:292 JLINK_WriteReg(R3, 0x00000000)  returns 0x00 (0000ms, 0734ms total)
T0E08 001:292 JLINK_WriteReg(R4, 0x00000000)  returns 0x00 (0000ms, 0734ms total)
T0E08 001:292 JLINK_WriteReg(R5, 0x00000000)  returns 0x00 (0000ms, 0734ms total)
T0E08 001:292 JLINK_WriteReg(R6, 0x00000000)  returns 0x00 (0000ms, 0734ms total)
T0E08 001:292 JLINK_WriteReg(R7, 0x00000000)  returns 0x00 (0000ms, 0734ms total)
T0E08 001:292 JLINK_WriteReg(R8, 0x00000000)  returns 0x00 (0000ms, 0734ms total)
T0E08 001:292 JLINK_WriteReg(R9, 0x2000017C)  returns 0x00 (0000ms, 0734ms total)
T0E08 001:292 JLINK_WriteReg(R10, 0x00000000)  returns 0x00 (0000ms, 0734ms total)
T0E08 001:292 JLINK_WriteReg(R11, 0x00000000)  returns 0x00 (0000ms, 0734ms total)
T0E08 001:292 JLINK_WriteReg(R12, 0x00000000)  returns 0x00 (0000ms, 0734ms total)
T0E08 001:292 JLINK_WriteReg(R13 (SP), 0x20001000)  returns 0x00 (0000ms, 0734ms total)
T0E08 001:292 JLINK_WriteReg(R14, 0x20000001)  returns 0x00 (0000ms, 0734ms total)
T0E08 001:292 JLINK_WriteReg(R15 (PC), 0x20000108)  returns 0x00 (0000ms, 0734ms total)
T0E08 001:292 JLINK_WriteReg(XPSR, 0x01000000)  returns 0x00 (0000ms, 0734ms total)
T0E08 001:292 JLINK_WriteReg(MSP, 0x20001000)  returns 0x00 (0000ms, 0734ms total)
T0E08 001:292 JLINK_WriteReg(PSP, 0x20001000)  returns 0x00 (0000ms, 0734ms total)
T0E08 001:292 JLINK_WriteReg(CFBP, 0x00000000)  returns 0x00 (0000ms, 0734ms total)
T0E08 001:292 JLINK_SetBPEx(Addr = 0x20000000, Type = 0xFFFFFFF2)  returns 0x00000009 (0001ms, 0735ms total)
T0E08 001:293 JLINK_Go() (0001ms, 0736ms total)
T0E08 001:294 JLINK_IsHalted()  returns FALSE (0001ms, 0737ms total)
T0E08 001:297 JLINK_IsHalted()  returns FALSE (0000ms, 0736ms total)
T0E08 001:300 JLINK_IsHalted() -- CPU_ReadMem(2 bytes @ 0x20000000)  returns TRUE (0004ms, 0740ms total)
T0E08 001:305 JLINK_ReadReg(R15 (PC))  returns 0x20000000 (0000ms, 0736ms total)
T0E08 001:305 JLINK_ClrBPEx(BPHandle = 0x00000009)  returns 0x00 (0000ms, 0736ms total)
T0E08 001:305 JLINK_ReadReg(R0)  returns 0x00000000 (0000ms, 0736ms total)
T0E08 001:305 JLINK_WriteMem(0x20000180, 0x0400 Bytes, ...) - Data: 7A 5C 47 68 D7 40 C7 60 F0 BD 00 00 08 38 02 40 ... -- CPU_WriteMem(1024 bytes @ 0x20000180)  returns 0x400 (0012ms, 0748ms total)
T0E08 001:317 JLINK_WriteReg(R0, 0x08001000)  returns 0x00 (0000ms, 0748ms total)
T0E08 001:317 JLINK_WriteReg(R1, 0x00000400)  returns 0x00 (0000ms, 0748ms total)
T0E08 001:317 JLINK_WriteReg(R2, 0x20000180)  returns 0x00 (0000ms, 0748ms total)
T0E08 001:317 JLINK_WriteReg(R3, 0x00000000)  returns 0x00 (0000ms, 0748ms total)
T0E08 001:317 JLINK_WriteReg(R4, 0x00000000)  returns 0x00 (0000ms, 0748ms total)
T0E08 001:317 JLINK_WriteReg(R5, 0x00000000)  returns 0x00 (0000ms, 0748ms total)
T0E08 001:317 JLINK_WriteReg(R6, 0x00000000)  returns 0x00 (0000ms, 0748ms total)
T0E08 001:317 JLINK_WriteReg(R7, 0x00000000)  returns 0x00 (0000ms, 0748ms total)
T0E08 001:317 JLINK_WriteReg(R8, 0x00000000)  returns 0x00 (0000ms, 0748ms total)
T0E08 001:317 JLINK_WriteReg(R9, 0x2000017C)  returns 0x00 (0000ms, 0748ms total)
T0E08 001:317 JLINK_WriteReg(R10, 0x00000000)  returns 0x00 (0000ms, 0748ms total)
T0E08 001:317 JLINK_WriteReg(R11, 0x00000000)  returns 0x00 (0000ms, 0748ms total)
T0E08 001:317 JLINK_WriteReg(R12, 0x00000000)  returns 0x00 (0001ms, 0749ms total)
T0E08 001:318 JLINK_WriteReg(R13 (SP), 0x20001000)  returns 0x00 (0000ms, 0749ms total)
T0E08 001:318 JLINK_WriteReg(R14, 0x20000001)  returns 0x00 (0000ms, 0749ms total)
T0E08 001:318 JLINK_WriteReg(R15 (PC), 0x20000108)  returns 0x00 (0000ms, 0749ms total)
T0E08 001:318 JLINK_WriteReg(XPSR, 0x01000000)  returns 0x00 (0000ms, 0749ms total)
T0E08 001:318 JLINK_WriteReg(MSP, 0x20001000)  returns 0x00 (0000ms, 0749ms total)
T0E08 001:318 JLINK_WriteReg(PSP, 0x20001000)  returns 0x00 (0000ms, 0749ms total)
T0E08 001:318 JLINK_WriteReg(CFBP, 0x00000000)  returns 0x00 (0000ms, 0749ms total)
T0E08 001:318 JLINK_SetBPEx(Addr = 0x20000000, Type = 0xFFFFFFF2)  returns 0x0000000A (0000ms, 0749ms total)
T0E08 001:318 JLINK_Go() (0002ms, 0751ms total)
T0E08 001:320 JLINK_IsHalted()  returns FALSE (0002ms, 0753ms total)
T0E08 001:325 JLINK_IsHalted() -- CPU_ReadMem(2 bytes @ 0x20000000)  returns TRUE (0006ms, 0757ms total)
T0E08 001:331 JLINK_ReadReg(R15 (PC))  returns 0x20000000 (0000ms, 0751ms total)
T0E08 001:331 JLINK_ClrBPEx(BPHandle = 0x0000000A)  returns 0x00 (0000ms, 0751ms total)
T0E08 001:331 JLINK_ReadReg(R0)  returns 0x00000000 (0000ms, 0751ms total)
T0E08 001:331 JLINK_WriteMem(0x20000180, 0x0400 Bytes, ...) - Data: 00 68 00 F0 40 00 00 B1 02 E0 00 20 E0 70 00 BF ... -- CPU_WriteMem(1024 bytes @ 0x20000180)  returns 0x400 (0017ms, 0768ms total)
T0E08 001:348 JLINK_WriteReg(R0, 0x08001400)  returns 0x00 (0000ms, 0768ms total)
T0E08 001:348 JLINK_WriteReg(R1, 0x00000400)  returns 0x00 (0000ms, 0768ms total)
T0E08 001:348 JLINK_WriteReg(R2, 0x20000180)  returns 0x00 (0000ms, 0768ms total)
T0E08 001:348 JLINK_WriteReg(R3, 0x00000000)  returns 0x00 (0000ms, 0768ms total)
T0E08 001:348 JLINK_WriteReg(R4, 0x00000000)  returns 0x00 (0000ms, 0768ms total)
T0E08 001:348 JLINK_WriteReg(R5, 0x00000000)  returns 0x00 (0000ms, 0768ms total)
T0E08 001:348 JLINK_WriteReg(R6, 0x00000000)  returns 0x00 (0000ms, 0768ms total)
T0E08 001:348 JLINK_WriteReg(R7, 0x00000000)  returns 0x00 (0000ms, 0768ms total)
T0E08 001:348 JLINK_WriteReg(R8, 0x00000000)  returns 0x00 (0000ms, 0768ms total)
T0E08 001:348 JLINK_WriteReg(R9, 0x2000017C)  returns 0x00 (0000ms, 0768ms total)
T0E08 001:348 JLINK_WriteReg(R10, 0x00000000)  returns 0x00 (0000ms, 0768ms total)
T0E08 001:348 JLINK_WriteReg(R11, 0x00000000)  returns 0x00 (0000ms, 0768ms total)
T0E08 001:348 JLINK_WriteReg(R12, 0x00000000)  returns 0x00 (0000ms, 0768ms total)
T0E08 001:348 JLINK_WriteReg(R13 (SP), 0x20001000)  returns 0x00 (0000ms, 0768ms total)
T0E08 001:348 JLINK_WriteReg(R14, 0x20000001)  returns 0x00 (0000ms, 0768ms total)
T0E08 001:348 JLINK_WriteReg(R15 (PC), 0x20000108)  returns 0x00 (0000ms, 0768ms total)
T0E08 001:348 JLINK_WriteReg(XPSR, 0x01000000)  returns 0x00 (0000ms, 0768ms total)
T0E08 001:348 JLINK_WriteReg(MSP, 0x20001000)  returns 0x00 (0000ms, 0768ms total)
T0E08 001:348 JLINK_WriteReg(PSP, 0x20001000)  returns 0x00 (0000ms, 0768ms total)
T0E08 001:348 JLINK_WriteReg(CFBP, 0x00000000)  returns 0x00 (0000ms, 0768ms total)
T0E08 001:348 JLINK_SetBPEx(Addr = 0x20000000, Type = 0xFFFFFFF2)  returns 0x0000000B (0000ms, 0768ms total)
T0E08 001:348 JLINK_Go() (0005ms, 0773ms total)
T0E08 001:353 JLINK_IsHalted()  returns FALSE (0001ms, 0774ms total)
T0E08 001:356 JLINK_IsHalted()  returns FALSE (0000ms, 0773ms total)
T0E08 001:359 JLINK_IsHalted() -- CPU_ReadMem(2 bytes @ 0x20000000)  returns TRUE (0004ms, 0777ms total)
T0E08 001:363 JLINK_ReadReg(R15 (PC))  returns 0x20000000 (0000ms, 0773ms total)
T0E08 001:363 JLINK_ClrBPEx(BPHandle = 0x0000000B)  returns 0x00 (0000ms, 0773ms total)
T0E08 001:363 JLINK_ReadReg(R0)  returns 0x00000000 (0000ms, 0773ms total)
T0E08 001:363 JLINK_WriteMem(0x20000180, 0x0400 Bytes, ...) - Data: 00 68 00 F0 0C 00 08 28 F8 D1 0C BD 00 38 02 40 ... -- CPU_WriteMem(1024 bytes @ 0x20000180)  returns 0x400 (0011ms, 0784ms total)
T0E08 001:374 JLINK_WriteReg(R0, 0x08001800)  returns 0x00 (0000ms, 0784ms total)
T0E08 001:374 JLINK_WriteReg(R1, 0x00000400)  returns 0x00 (0000ms, 0784ms total)
T0E08 001:374 JLINK_WriteReg(R2, 0x20000180)  returns 0x00 (0000ms, 0784ms total)
T0E08 001:374 JLINK_WriteReg(R3, 0x00000000)  returns 0x00 (0002ms, 0786ms total)
T0E08 001:376 JLINK_WriteReg(R4, 0x00000000)  returns 0x00 (0000ms, 0786ms total)
T0E08 001:376 JLINK_WriteReg(R5, 0x00000000)  returns 0x00 (0000ms, 0786ms total)
T0E08 001:376 JLINK_WriteReg(R6, 0x00000000)  returns 0x00 (0001ms, 0787ms total)
T0E08 001:377 JLINK_WriteReg(R7, 0x00000000)  returns 0x00 (0000ms, 0787ms total)
T0E08 001:377 JLINK_WriteReg(R8, 0x00000000)  returns 0x00 (0000ms, 0787ms total)
T0E08 001:377 JLINK_WriteReg(R9, 0x2000017C)  returns 0x00 (0000ms, 0787ms total)
T0E08 001:377 JLINK_WriteReg(R10, 0x00000000)  returns 0x00 (0000ms, 0787ms total)
T0E08 001:377 JLINK_WriteReg(R11, 0x00000000)  returns 0x00 (0001ms, 0788ms total)
T0E08 001:378 JLINK_WriteReg(R12, 0x00000000)  returns 0x00 (0000ms, 0788ms total)
T0E08 001:378 JLINK_WriteReg(R13 (SP), 0x20001000)  returns 0x00 (0000ms, 0788ms total)
T0E08 001:378 JLINK_WriteReg(R14, 0x20000001)  returns 0x00 (0000ms, 0788ms total)
T0E08 001:378 JLINK_WriteReg(R15 (PC), 0x20000108)  returns 0x00 (0000ms, 0788ms total)
T0E08 001:378 JLINK_WriteReg(XPSR, 0x01000000)  returns 0x00 (0000ms, 0788ms total)
T0E08 001:378 JLINK_WriteReg(MSP, 0x20001000)  returns 0x00 (0000ms, 0788ms total)
T0E08 001:378 JLINK_WriteReg(PSP, 0x20001000)  returns 0x00 (0000ms, 0788ms total)
T0E08 001:378 JLINK_WriteReg(CFBP, 0x00000000)  returns 0x00 (0000ms, 0788ms total)
T0E08 001:378 JLINK_SetBPEx(Addr = 0x20000000, Type = 0xFFFFFFF2)  returns 0x0000000C (0000ms, 0788ms total)
T0E08 001:378 JLINK_Go() (0002ms, 0790ms total)
T0E08 001:380 JLINK_IsHalted()  returns FALSE (0000ms, 0790ms total)
T0E08 001:384 JLINK_IsHalted() -- CPU_ReadMem(2 bytes @ 0x20000000)  returns TRUE (0005ms, 0795ms total)
T0E08 001:389 JLINK_ReadReg(R15 (PC))  returns 0x20000000 (0000ms, 0790ms total)
T0E08 001:389 JLINK_ClrBPEx(BPHandle = 0x0000000C)  returns 0x00 (0000ms, 0790ms total)
T0E08 001:389 JLINK_ReadReg(R0)  returns 0x00000000 (0000ms, 0790ms total)
T0E08 001:389 JLINK_WriteMem(0x20000180, 0x0400 Bytes, ...) - Data: 0C 12 01 26 06 FA 04 F4 16 88 34 40 13 B1 0C B1 ... -- CPU_WriteMem(1024 bytes @ 0x20000180)  returns 0x400 (0012ms, 0802ms total)
T0E08 001:401 JLINK_WriteReg(R0, 0x08001C00)  returns 0x00 (0000ms, 0802ms total)
T0E08 001:401 JLINK_WriteReg(R1, 0x00000400)  returns 0x00 (0000ms, 0802ms total)
T0E08 001:401 JLINK_WriteReg(R2, 0x20000180)  returns 0x00 (0000ms, 0802ms total)
T0E08 001:401 JLINK_WriteReg(R3, 0x00000000)  returns 0x00 (0000ms, 0802ms total)
T0E08 001:401 JLINK_WriteReg(R4, 0x00000000)  returns 0x00 (0000ms, 0802ms total)
T0E08 001:401 JLINK_WriteReg(R5, 0x00000000)  returns 0x00 (0000ms, 0802ms total)
T0E08 001:401 JLINK_WriteReg(R6, 0x00000000)  returns 0x00 (0000ms, 0802ms total)
T0E08 001:401 JLINK_WriteReg(R7, 0x00000000)  returns 0x00 (0000ms, 0802ms total)
T0E08 001:401 JLINK_WriteReg(R8, 0x00000000)  returns 0x00 (0000ms, 0802ms total)
T0E08 001:401 JLINK_WriteReg(R9, 0x2000017C)  returns 0x00 (0000ms, 0802ms total)
T0E08 001:401 JLINK_WriteReg(R10, 0x00000000)  returns 0x00 (0000ms, 0802ms total)
T0E08 001:401 JLINK_WriteReg(R11, 0x00000000)  returns 0x00 (0000ms, 0802ms total)
T0E08 001:401 JLINK_WriteReg(R12, 0x00000000)  returns 0x00 (0000ms, 0802ms total)
T0E08 001:401 JLINK_WriteReg(R13 (SP), 0x20001000)  returns 0x00 (0001ms, 0803ms total)
T0E08 001:402 JLINK_WriteReg(R14, 0x20000001)  returns 0x00 (0000ms, 0803ms total)
T0E08 001:402 JLINK_WriteReg(R15 (PC), 0x20000108)  returns 0x00 (0000ms, 0803ms total)
T0E08 001:402 JLINK_WriteReg(XPSR, 0x01000000)  returns 0x00 (0000ms, 0803ms total)
T0E08 001:402 JLINK_WriteReg(MSP, 0x20001000)  returns 0x00 (0000ms, 0803ms total)
T0E08 001:402 JLINK_WriteReg(PSP, 0x20001000)  returns 0x00 (0000ms, 0803ms total)
T0E08 001:402 JLINK_WriteReg(CFBP, 0x00000000)  returns 0x00 (0000ms, 0803ms total)
T0E08 001:402 JLINK_SetBPEx(Addr = 0x20000000, Type = 0xFFFFFFF2)  returns 0x0000000D (0000ms, 0803ms total)
T0E08 001:402 JLINK_Go() (0002ms, 0805ms total)
T0E08 001:404 JLINK_IsHalted()  returns FALSE (0001ms, 0806ms total)
T0E08 001:407 JLINK_IsHalted()  returns FALSE (0001ms, 0806ms total)
T0E08 001:410 JLINK_IsHalted() -- CPU_ReadMem(2 bytes @ 0x20000000)  returns TRUE (0005ms, 0810ms total)
T0E08 001:415 JLINK_ReadReg(R15 (PC))  returns 0x20000000 (0000ms, 0805ms total)
T0E08 001:415 JLINK_ClrBPEx(BPHandle = 0x0000000D)  returns 0x00 (0000ms, 0805ms total)
T0E08 001:415 JLINK_ReadReg(R0)  returns 0x00000000 (0000ms, 0805ms total)
T0E08 001:415 JLINK_WriteMem(0x20000180, 0x0400 Bytes, ...) - Data: 4F F0 E0 22 11 61 C0 EB C0 01 01 EB 41 01 49 1E ... -- CPU_WriteMem(1024 bytes @ 0x20000180)  returns 0x400 (0013ms, 0818ms total)
T0E08 001:428 JLINK_WriteReg(R0, 0x08002000)  returns 0x00 (0000ms, 0818ms total)
T0E08 001:428 JLINK_WriteReg(R1, 0x00000400)  returns 0x00 (0000ms, 0818ms total)
T0E08 001:428 JLINK_WriteReg(R2, 0x20000180)  returns 0x00 (0000ms, 0818ms total)
T0E08 001:428 JLINK_WriteReg(R3, 0x00000000)  returns 0x00 (0000ms, 0818ms total)
T0E08 001:428 JLINK_WriteReg(R4, 0x00000000)  returns 0x00 (0000ms, 0818ms total)
T0E08 001:428 JLINK_WriteReg(R5, 0x00000000)  returns 0x00 (0000ms, 0818ms total)
T0E08 001:428 JLINK_WriteReg(R6, 0x00000000)  returns 0x00 (0000ms, 0818ms total)
T0E08 001:428 JLINK_WriteReg(R7, 0x00000000)  returns 0x00 (0000ms, 0818ms total)
T0E08 001:428 JLINK_WriteReg(R8, 0x00000000)  returns 0x00 (0000ms, 0818ms total)
T0E08 001:428 JLINK_WriteReg(R9, 0x2000017C)  returns 0x00 (0000ms, 0818ms total)
T0E08 001:428 JLINK_WriteReg(R10, 0x00000000)  returns 0x00 (0000ms, 0818ms total)
T0E08 001:428 JLINK_WriteReg(R11, 0x00000000)  returns 0x00 (0000ms, 0818ms total)
T0E08 001:428 JLINK_WriteReg(R12, 0x00000000)  returns 0x00 (0000ms, 0818ms total)
T0E08 001:428 JLINK_WriteReg(R13 (SP), 0x20001000)  returns 0x00 (0000ms, 0818ms total)
T0E08 001:428 JLINK_WriteReg(R14, 0x20000001)  returns 0x00 (0000ms, 0818ms total)
T0E08 001:428 JLINK_WriteReg(R15 (PC), 0x20000108)  returns 0x00 (0000ms, 0818ms total)
T0E08 001:428 JLINK_WriteReg(XPSR, 0x01000000)  returns 0x00 (0000ms, 0818ms total)
T0E08 001:428 JLINK_WriteReg(MSP, 0x20001000)  returns 0x00 (0000ms, 0818ms total)
T0E08 001:428 JLINK_WriteReg(PSP, 0x20001000)  returns 0x00 (0000ms, 0818ms total)
T0E08 001:428 JLINK_WriteReg(CFBP, 0x00000000)  returns 0x00 (0000ms, 0818ms total)
T0E08 001:428 JLINK_SetBPEx(Addr = 0x20000000, Type = 0xFFFFFFF2)  returns 0x0000000E (0000ms, 0818ms total)
T0E08 001:428 JLINK_Go() (0002ms, 0820ms total)
T0E08 001:430 JLINK_IsHalted()  returns FALSE (0001ms, 0821ms total)
T0E08 001:433 JLINK_IsHalted()  returns FALSE (0000ms, 0820ms total)
T0E08 001:435 JLINK_IsHalted() -- CPU_ReadMem(2 bytes @ 0x20000000)  returns TRUE (0004ms, 0824ms total)
T0E08 001:439 JLINK_ReadReg(R15 (PC))  returns 0x20000000 (0000ms, 0820ms total)
T0E08 001:439 JLINK_ClrBPEx(BPHandle = 0x0000000E)  returns 0x00 (0000ms, 0820ms total)
T0E08 001:439 JLINK_ReadReg(R0)  returns 0x00000000 (0000ms, 0820ms total)
T0E08 001:439 JLINK_WriteMem(0x20000180, 0x0400 Bytes, ...) - Data: 00 78 01 28 12 D1 00 F0 15 FC 04 46 3C B9 1F 48 ... -- CPU_WriteMem(1024 bytes @ 0x20000180)  returns 0x400 (0012ms, 0832ms total)
T0E08 001:451 JLINK_WriteReg(R0, 0x08002400)  returns 0x00 (0000ms, 0832ms total)
T0E08 001:451 JLINK_WriteReg(R1, 0x00000400)  returns 0x00 (0000ms, 0832ms total)
T0E08 001:451 JLINK_WriteReg(R2, 0x20000180)  returns 0x00 (0000ms, 0832ms total)
T0E08 001:451 JLINK_WriteReg(R3, 0x00000000)  returns 0x00 (0000ms, 0832ms total)
T0E08 001:451 JLINK_WriteReg(R4, 0x00000000)  returns 0x00 (0000ms, 0832ms total)
T0E08 001:451 JLINK_WriteReg(R5, 0x00000000)  returns 0x00 (0000ms, 0832ms total)
T0E08 001:451 JLINK_WriteReg(R6, 0x00000000)  returns 0x00 (0000ms, 0832ms total)
T0E08 001:451 JLINK_WriteReg(R7, 0x00000000)  returns 0x00 (0000ms, 0832ms total)
T0E08 001:451 JLINK_WriteReg(R8, 0x00000000)  returns 0x00 (0000ms, 0832ms total)
T0E08 001:451 JLINK_WriteReg(R9, 0x2000017C)  returns 0x00 (0000ms, 0832ms total)
T0E08 001:451 JLINK_WriteReg(R10, 0x00000000)  returns 0x00 (0001ms, 0833ms total)
T0E08 001:452 JLINK_WriteReg(R11, 0x00000000)  returns 0x00 (0000ms, 0833ms total)
T0E08 001:452 JLINK_WriteReg(R12, 0x00000000)  returns 0x00 (0000ms, 0833ms total)
T0E08 001:452 JLINK_WriteReg(R13 (SP), 0x20001000)  returns 0x00 (0000ms, 0833ms total)
T0E08 001:452 JLINK_WriteReg(R14, 0x20000001)  returns 0x00 (0000ms, 0833ms total)
T0E08 001:452 JLINK_WriteReg(R15 (PC), 0x20000108)  returns 0x00 (0000ms, 0833ms total)
T0E08 001:452 JLINK_WriteReg(XPSR, 0x01000000)  returns 0x00 (0000ms, 0833ms total)
T0E08 001:452 JLINK_WriteReg(MSP, 0x20001000)  returns 0x00 (0000ms, 0833ms total)
T0E08 001:452 JLINK_WriteReg(PSP, 0x20001000)  returns 0x00 (0000ms, 0833ms total)
T0E08 001:452 JLINK_WriteReg(CFBP, 0x00000000)  returns 0x00 (0000ms, 0833ms total)
T0E08 001:452 JLINK_SetBPEx(Addr = 0x20000000, Type = 0xFFFFFFF2)  returns 0x0000000F (0000ms, 0833ms total)
